---
title: "AXI4-Lite Slave 接口设计模式"
category: "design_patterns"
tags: ["axi", "axi-lite", "bus", "slave", "register"]
complexity: "medium"
hdl_language: ["verilog", "systemverilog"]
ppa_profile:
  area_gates: 800
  max_freq_mhz: 300
  power_mw: 5.2
last_updated: "2026-02-14"
---

# AXI4-Lite Slave 接口设计模式

## 概述
AXI4-Lite 是 ARM AMBA 总线协议的简化版本，专为低吞吐量的寄存器访问场景设计。相比完整的AXI4协议，AXI4-Lite去除了突发传输、缓存支持等复杂特性，仅保留单次读写操作。

## 应用场景
- 寄存器文件 (Register File)
- 配置接口 (Configuration Interface)
- 状态监控 (Status Monitoring)
- 低速外设控制

## 模块结构

### 顶层端口
```verilog
module axi_slave_wrapper #(
    parameter ADDR_WIDTH = 12,
    parameter DATA_WIDTH = 32
) (
    // Clock and Reset
    input  wire                    clk,
    input  wire                    rst_n,
    
    // AXI4-Lite Slave Interface - Write Address Channel
    input  wire [ADDR_WIDTH-1:0]   s_axi_awaddr,
    input  wire [2:0]              s_axi_awprot,   // Protection type (usually ignored)
    input  wire                    s_axi_awvalid,
    output wire                    s_axi_awready,
    
    // Write Data Channel
    input  wire [DATA_WIDTH-1:0]   s_axi_wdata,
    input  wire [DATA_WIDTH/8-1:0] s_axi_wstrb,    // Byte strobe
    input  wire                    s_axi_wvalid,
    output wire                    s_axi_wready,
    
    // Write Response Channel
    output wire [1:0]              s_axi_bresp,    // 2'b00 = OKAY
    output wire                    s_axi_bvalid,
    input  wire                    s_axi_bready,
    
    // Read Address Channel
    input  wire [ADDR_WIDTH-1:0]   s_axi_araddr,
    input  wire [2:0]              s_axi_arprot,
    input  wire                    s_axi_arvalid,
    output wire                    s_axi_arready,
    
    // Read Data Channel
    output wire [DATA_WIDTH-1:0]   s_axi_rdata,
    output wire [1:0]              s_axi_rresp,    // 2'b00 = OKAY
    output wire                    s_axi_rvalid,
    input  wire                    s_axi_rready,
    
    // Internal Register Interface
    output wire [ADDR_WIDTH-1:0]   reg_addr,
    output wire [DATA_WIDTH-1:0]   reg_wdata,
    output wire                    reg_wen,
    input  wire [DATA_WIDTH-1:0]   reg_rdata,
    output wire                    reg_ren
);
```

### 层次结构
```
axi_slave_wrapper (top)
├── write_channel_fsm    (写通道状态机)
├── read_channel_fsm     (读通道状态机)
└── register_interface   (寄存器接口适配器)
```

## 握手协议

### 写操作时序
1. Master 发起写地址 (`awvalid=1, awaddr=<addr>`)
2. Slave 接受地址 (`awready=1`)
3. Master 发起写数据 (`wvalid=1, wdata=<data>, wstrb=<strb>`)
4. Slave 接受数据 (`wready=1`)
5. Slave 发送响应 (`bvalid=1, bresp=2'b00`)
6. Master 接受响应 (`bready=1`)

### 读操作时序
1. Master 发起读地址 (`arvalid=1, araddr=<addr>`)
2. Slave 接受地址 (`arready=1`)
3. Slave 发送读数据 (`rvalid=1, rdata=<data>, rresp=2'b00`)
4. Master 接受数据 (`rready=1`)

## 状态机设计

### 写通道FSM
```
IDLE → AW_ACCEPT → W_ACCEPT → B_RESPOND → IDLE
```

### 读通道FSM
```
IDLE → AR_ACCEPT → R_RESPOND → IDLE
```

## PPA 特性

### 面积估算
- **基础逻辑**: ~800 GE (Gate Equivalents)
- **寄存器**: ~64 FFs (存储地址、数据、状态)
- **总计**: ~1000 GE (含握手逻辑)

### 频率估算
- **28nm工艺**: 可达 300 MHz
- **7nm工艺**: 可达 600+ MHz
- **关键路径**: 地址译码 + 寄存器读写 (~3-5 logic levels)

### 功耗估算
- **动态功耗**: ~5 mW @ 200MHz, 0.2 activity
- **静态功耗**: ~0.3 mW @ 28nm
- **时钟树功耗**: ~1.2 mW (占比 24%)

## 设计要点

### ✅ 必须遵守
1. **握手独立性**: 写地址、写数据、写响应通道相互独立
2. **响应顺序**: 必须按请求顺序返回响应（AXI4-Lite不支持乱序）
3. **复位处理**: 所有`valid`信号在复位时必须清零
4. **默认响应**: 所有访问默认返回`OKAY` (2'b00)

### ⚠️ 常见陷阱
1. **死锁风险**: 如果`awready`和`wready`都依赖对方，会造成死锁
   - 解决方案: 使用独立的就绪信号或缓冲
2. **响应延迟**: `bvalid`必须在`wvalid && wready`之后才能拉高
3. **字节选通**: 必须正确处理`wstrb`信号，支持部分字节写入

### 💡 优化技巧
1. **流水线化**: 可以在地址接受和数据处理之间插入流水线寄存器
2. **时钟门控**: 在空闲状态关闭写/读通道时钟
3. **组合逻辑优化**: 地址译码使用并行比较器减少逻辑深度

## 参考实现（简化版）

```verilog
// Write Address Channel
reg [ADDR_WIDTH-1:0] awaddr_reg;
reg                  awready_reg;

always @(posedge clk or negedge rst_n) begin
    if (!rst_n) begin
        awaddr_reg  <= 0;
        awready_reg <= 1'b1;  // Ready to accept
    end else if (s_axi_awvalid && awready_reg) begin
        awaddr_reg  <= s_axi_awaddr;
        awready_reg <= 1'b0;  // Busy until write completes
    end else if (s_axi_bvalid && s_axi_bready) begin
        awready_reg <= 1'b1;  // Ready for next transaction
    end
end

assign s_axi_awready = awready_reg;
```

## 验证要点
1. **协议合规性**: 使用UVM AXI VIP验证握手时序
2. **边界条件**: 测试地址边界、跨字节写入
3. **背压测试**: Master在`bready=0`时Slave不应丢弃响应
4. **复位测试**: 验证复位期间所有握手信号正确清零

## 相关资源
- [ARM IHI0022E AMBA AXI Protocol Specification](https://developer.arm.com/documentation/ihi0022/e)
- [Xilinx AXI Reference Guide (UG1037)](https://www.xilinx.com/support/documentation/ip_documentation/ug1037-vivado-axi-reference-guide.pdf)
